### 四路继电器控制  开发，关闭，翻转
## 单元标识符 功能码 线圈起始地址 寄存器数量 效验码

01 05 00 00 FF 00 8C 3A
01 05 00 00 00 00 CD CA
01 05 00 00 55 00 F2 9A

01 05 00 01 FF 00 DD FA
01 05 00 01 00 00 9C 0A
01 05 00 01 55 00 A3 5A

01 05 00 02 FF 00 2D FA
01 05 00 02 00 00 6C 0A
01 05 00 02 55 00 53 5A

01 05 00 03 FF 00 7C 3A
01 05 00 03 00 00 3D CA
01 05 00 03 55 00 A3 5A

